,Vin,Vout,gain,Id,rez
0,0.0,0.4628424018768511,-0.5156358545599427,-0.0009256848037523455,500(Օմ)
1,0.005,0.46025880637998456,-0.5178023441866741,-0.0009205176127588741,500(Օմ)
2,0.01,0.45766437843498436,-0.5191399373789486,-0.0009153287568673396,500(Օմ)
3,0.015,0.4550674070061951,-0.5199101900683956,-0.0009101348140084509,500(Օմ)
4,0.02,0.4524652765343004,-0.52093083620246,-0.0009049305530704002,500(Օմ)
5,0.025,0.4498580986441705,-0.5219290738384951,-0.000899716197288361,500(Օմ)
6,0.030000000000000002,0.44724598579591546,-0.5229047358858151,-0.0008944919715850458,500(Օմ)
7,0.035,0.4446290512853123,-0.5238576545748288,-0.0008892581025707127,500(Օմ)
8,0.04,0.4420074092501672,-0.5247876611827853,-0.0008840148185005753,500(Օմ)
9,0.045,0.4393811746734845,-0.5256945862290865,-0.0008787623493422478,500(Օմ)
10,0.049999999999999996,0.4367504633878763,-0.5265782599055804,-0.000873500926768668,500(Օմ)
11,0.05499999999999999,0.4341153920744287,-0.5274385114615201,-0.0008682307841473974,500(Օմ)
12,0.05999999999999999,0.4314760782732611,-0.5282751695392665,-0.0008629521565442916,500(Օմ)
13,0.06499999999999999,0.428832640379036,-0.5290880625520521,-0.0008576652807517557,500(Օմ)
14,0.06999999999999999,0.4261851976477406,-0.5298770183479069,-0.0008523703952995065,500(Օմ)
15,0.075,0.42353387019555694,-0.5306418645582729,-0.0008470677403870919,500(Օմ)
16,0.08,0.42087877900215787,-0.5313824282170305,-0.0008417575580045994,500(Օմ)
17,0.085,0.41822004591338663,-0.5320985364443416,-0.0008364400918296558,500(Օմ)
18,0.09000000000000001,0.41555779363771445,-0.5327900162137185,-0.0008311155872772202,500(Օմ)
19,0.09500000000000001,0.41289214575124944,-0.5334566940273784,-0.0008257842915030886,500(Օմ)
20,0.10000000000000002,0.41022322669744066,-0.5340983968045439,-0.0008204464533896269,500(Օմ)
21,0.10500000000000002,0.407551161783204,-0.5347149513286016,-0.0008151023235601004,500(Օմ)
22,0.11000000000000003,0.40487607718415464,-0.5353061844509284,-0.0008097521543644071,500(Օմ)
23,0.11500000000000003,0.4021980999386947,-0.5358719232017968,-0.0008043961998790428,500(Օմ)
24,0.12000000000000004,0.39951735795213666,-0.5364119951365601,-0.0007990347159000238,500(Օմ)
25,0.12500000000000003,0.3968339799873291,-0.5369262279254718,-0.0007936679599784349,500(Օմ)
26,0.13000000000000003,0.39414809567288195,-0.5374144494390938,-0.0007882961913458011,500(Օմ)
27,0.13500000000000004,0.39145983549293817,-0.5378764884983007,-0.0007829196709780162,500(Օմ)
28,0.14000000000000004,0.38876933078789894,-0.5383121740873071,-0.0007775386615705218,500(Օմ)
29,0.14500000000000005,0.3860767137520651,-0.5387213359472615,-0.0007721534274991934,500(Օմ)
30,0.15000000000000005,0.3833821174284263,-0.5391038045677528,-0.0007667642348522657,500(Օմ)
31,0.15500000000000005,0.38068567570638756,-0.5394594111578606,-0.0007613713514126874,500(Օմ)
32,0.16000000000000006,0.3779875233168477,-0.5397879877524209,-0.0007559750466367143,500(Օմ)
33,0.16500000000000006,0.37528779582886335,-0.5400893672577451,-0.0007505755916503709,500(Օմ)
34,0.17000000000000007,0.37258662964427025,-0.5403633836793982,-0.0007451732592885438,500(Օմ)
35,0.17500000000000007,0.36988416199206936,-0.5406098720480252,-0.0007397683239812811,500(Օմ)
36,0.18000000000000008,0.36718053092379,-0.5408286686428116,-0.0007343610618426449,500(Օմ)
37,0.18500000000000008,0.36447587530564124,-0.5410196106881588,-0.0007289517506137641,500(Օմ)
38,0.19000000000000009,0.3617703348169084,-0.5411825369891428,-0.0007235406696345717,500(Օմ)
39,0.1950000000000001,0.3590640499357498,-0.5413172876976564,-0.0007181280998720882,500(Օմ)
40,0.2000000000000001,0.35635716193993183,-0.5414237040611886,-0.000712714323881404,500(Օմ)
41,0.2050000000000001,0.3536498128951379,-0.5415016294102455,-0.0007072996257878744,500(Օմ)
42,0.2100000000000001,0.3509421456458294,-0.5415509084610521,-0.0007018842912836429,500(Օմ)
43,0.2150000000000001,0.3482343038105274,-0.541571387362771,-0.0006964686076168861,500(Օմ)
44,0.2200000000000001,0.34552643177220166,-0.5415629143291296,-0.0006910528635421312,500(Օմ)
45,0.22500000000000012,0.3428186746672361,-0.5415253392430537,-0.0006856373493344739,500(Օմ)
46,0.23000000000000012,0.3401111783797711,-0.541458514094872,-0.0006802223567504567,500(Օմ)
47,0.23500000000000013,0.33740408952628737,-0.5413622926599132,-0.0006748081790494131,500(Օմ)
48,0.24000000000000013,0.334697555453172,-0.5412365309842178,-0.0006693951109010832,500(Օմ)
49,0.24500000000000013,0.3319917242164452,-0.5410810871277808,-0.0006639834484424567,500(Օմ)
50,0.2500000000000001,0.3292867445818943,-0.5408958213163405,-0.000658573489160541,500(Օմ)
51,0.2550000000000001,0.3265827660032818,-0.5406805963378165,-0.0006531655320024948,500(Օմ)
52,0.2600000000000001,0.3238799386185161,-0.5404352771570915,-0.0006477598772299392,500(Օմ)
53,0.2650000000000001,0.32117841323171087,-0.5401597311459279,-0.000642356826461625,500(Օմ)
54,0.27000000000000013,0.3184783413070568,-0.5398538283971016,-0.0006369566826130088,500(Օմ)
55,0.27500000000000013,0.31577987494773985,-0.5395174415810772,-0.0006315597498927211,500(Օմ)
56,0.28000000000000014,0.31308316689124605,-0.5391504459408443,-0.00062616633377411,500(Օմ)
57,0.28500000000000014,0.3103883704883314,-0.5387527196208826,-0.0006207767409704482,500(Օմ)
58,0.29000000000000015,0.3076956396950372,-0.5383241434108228,-0.000615391279381497,500(Օմ)
59,0.29500000000000015,0.30500512905422317,-0.537864601265447,-0.0006100102581007641,500(Օմ)
60,0.30000000000000016,0.30231699368238274,-0.5373739799559403,-0.0006046339873656895,500(Օմ)
61,0.30500000000000016,0.29963138925466376,-0.5368521692809042,-0.0005992627785043336,500(Օմ)
62,0.31000000000000016,0.2969484719895737,-0.5362990623696824,-0.0005938969439780589,500(Օմ)
63,0.31500000000000017,0.29426839863096693,-0.535714555397004,-0.0005885367972607511,500(Օմ)
64,0.3200000000000002,0.29159132643560365,-0.5350985477836853,-0.0005831826528671369,500(Օմ)
65,0.3250000000000002,0.2889174131531301,-0.5344509424983929,-0.0005778348263031641,500(Օմ)
66,0.3300000000000002,0.2862468170106197,-0.53377164567957,-0.000572493634019712,500(Օմ)
67,0.3350000000000002,0.28357969669633437,-0.533060567072074,-0.0005671593933914004,500(Օմ)
68,0.3400000000000002,0.28091621133989897,-0.532317619989769,-0.0005618324226773636,500(Օմ)
69,0.3450000000000002,0.2782565204964367,-0.5315427214095719,-0.000556513040989394,500(Օմ)
70,0.3500000000000002,0.27560078412580324,-0.5307357918913898,-0.0005512015682456808,500(Օմ)
71,0.3550000000000002,0.2729491625775228,-0.5298967556754127,-0.0005458983251495075,500(Օմ)
72,0.3600000000000002,0.2703018165690491,-0.5290255410537454,-0.0005406036331324776,500(Օմ)
73,0.3650000000000002,0.2676589071669853,-0.528122080011772,-0.000535317814329507,500(Օմ)
74,0.3700000000000002,0.2650205957689314,-0.527186308415561,-0.0005300411915363443,500(Օմ)
75,0.3750000000000002,0.2623870440828297,-0.526218166411318,-0.0005247740881668267,500(Օմ)
76,0.3800000000000002,0.2597584141048182,-0.5252175979053193,-0.0005195168282138424,500(Օմ)
77,0.38500000000000023,0.2571348681037765,-0.5241845510405957,-0.0005142697362031379,500(Օմ)
78,0.39000000000000024,0.25451656859441224,-0.5231189782054274,-0.0005090331371862059,500(Օմ)
79,0.39500000000000024,0.2519036783217222,-0.522020835730821,-0.0005038073566408369,500(Օմ)
80,0.40000000000000024,0.24929636023710403,-0.5208900845293207,-0.0004985927204746374,500(Օմ)
81,0.40500000000000025,0.246694777476429,-0.5197266897127567,-0.0004933895549433381,500(Օմ)
82,0.41000000000000025,0.24409909333997645,-0.5185306207560354,-0.0004881981866721036,500(Օմ)
83,0.41500000000000026,0.24150947126886865,-0.5173018514603248,-0.00048301894253825056,500(Օմ)
84,0.42000000000000026,0.2389260748253732,-0.516040360266384,-0.00047785214964295164,500(Օմ)
85,0.42500000000000027,0.2363490676662048,-0.514746130091786,-0.00047269813532526544,500(Օմ)
86,0.43000000000000027,0.23377861352445534,-0.5134191482025479,-0.00046755722705218994,500(Օմ)
87,0.4350000000000003,0.23121487618417932,-0.512059406644957,-0.00046242975236519823,500(Օմ)
88,0.4400000000000003,0.22865801945800576,-0.5106669020350892,-0.0004573160389194572,500(Օմ)
89,0.4450000000000003,0.22610820716382843,-0.5092416356641729,-0.0004522164143238791,500(Օմ)
90,0.4500000000000003,0.22356560310136403,-0.5077836134500853,-0.00044713120620862995,500(Օմ)
91,0.4550000000000003,0.22103037102932757,-0.5062928461467796,-0.0004420607420546341,500(Օմ)
92,0.4600000000000003,0.21850267463989623,-0.5047693490728418,-0.00043700534928234336,500(Օմ)
93,0.4650000000000003,0.21598267753859915,-0.5032131423863326,-0.0004319653550741778,500(Օմ)
94,0.4700000000000003,0.2134705432160329,-0.5016242512129006,-0.00042694108642418044,500(Օմ)
95,0.4750000000000003,0.21096643502647014,-0.5000027052237449,-0.0004219328700527797,500(Օմ)
96,0.4800000000000003,0.20847051616379544,-0.49834853911625265,-0.000416941032325098,500(Օմ)
97,0.4850000000000003,0.2059829496353076,-0.49666179234239505,-0.0004119658992686806,500(Օմ)
98,0.4900000000000003,0.2035038982403715,-0.49494250918422006,-0.00040700779648478874,500(Օմ)
99,0.49500000000000033,0.2010335245434654,-0.49319073893369325,-0.0004020670490806899,500(Օմ)
100,0.5000000000000003,0.19857199085103455,-0.49140653558636055,-0.0003971439816947281,500(Օմ)
101,0.5050000000000003,0.1961194591876018,-0.48958995808075134,-0.0003922389183647762,500(Օմ)
102,0.5100000000000003,0.19367609127022703,-0.48774107026141883,-0.00038735218253534154,500(Օմ)
103,0.5150000000000003,0.1912420484849876,-0.4858599407428137,-0.00038248409697237,500(Օմ)
104,0.5200000000000004,0.1888174918627989,-0.4839466432219882,-0.00037763498371694987,500(Օմ)
105,0.5250000000000004,0.18640258205276772,-0.4820012560226927,-0.00037280516410675285,500(Օմ)
106,0.5300000000000004,0.18399747930257196,-0.48002386239469264,-0.0003679949585947556,500(Օմ)
107,0.5350000000000004,0.18160234342882078,-0.47801455050302816,-0.0003632046868594016,500(Օմ)
108,0.5400000000000004,0.17921733379754168,-0.4759734131513981,-0.0003584346675914521,500(Օմ)
109,0.5450000000000004,0.1768426092973068,-0.47390054807425164,-0.0003536852185899164,500(Օմ)
110,0.5500000000000004,0.17447832831679916,-0.47179605769127264,-0.00034895665663058767,500(Օմ)
111,0.5550000000000004,0.17212464872039407,-0.46966004919983734,-0.0003442492974340475,500(Օմ)
112,0.5600000000000004,0.16978172782480078,-0.4674926344526753,-0.00033956345564437745,500(Օմ)
113,0.5650000000000004,0.1674497223758673,-0.46529392992351587,-0.0003348994447510689,500(Օմ)
114,0.5700000000000004,0.16512878852556562,-0.46306405680746304,-0.00033025757704976955,500(Օմ)
115,0.5750000000000004,0.16281908180779267,-0.460803140808077,-0.00032563816361758785,500(Օմ)
116,0.5800000000000004,0.16052075711748484,-0.45851131211738544,-0.00032104151422777255,500(Օմ)
117,0.5850000000000004,0.15823396868661882,-0.45618870550309004,-0.00031646793736740675,500(Օմ)
118,0.5900000000000004,0.15595887006245393,-0.4538354599827169,-0.0003119177401309514,500(Օմ)
119,0.5950000000000004,0.15369561408679164,-0.4514517190585956,-0.0003073912281739838,500(Օմ)
120,0.6000000000000004,0.15144435287186797,-0.44903763047169587,-0.00030288870574873145,500(Օմ)
121,0.6050000000000004,0.14920523778207467,-0.44659334618110713,-0.0002984104755584249,500(Օմ)
122,0.6100000000000004,0.1469784194100569,-0.4441190222765181,-0.0002939568388212882,500(Օմ)
123,0.6150000000000004,0.1447640475593095,-0.4416148188473425,-0.0002895280951176679,500(Օմ)
124,0.6200000000000004,0.14256227122158346,-0.43908090008278855,-0.0002851245424434559,500(Օմ)
125,0.6250000000000004,0.1403732385584816,-0.43651743396266396,-0.0002807464771176424,500(Օմ)
126,0.6300000000000004,0.13819709688195683,-0.43392459236519426,-0.0002763941937609857,500(Օմ)
127,0.6350000000000005,0.13603399263482965,-0.4313025507856437,-0.00027206798526410725,500(Օմ)
128,0.6400000000000005,0.13388407137410038,-0.4286514883121123,-0.00026776814274127175,500(Օմ)
129,0.6450000000000005,0.13174747775170853,-0.4259715876185645,-0.00026349495549841256,500(Օմ)
130,0.6500000000000005,0.12962435549791473,-0.42326303472004995,-0.0002592487109940242,500(Օմ)
131,0.6550000000000005,0.12751484740450802,-0.42052601886953594,-0.0002550296948072711,500(Օմ)
132,0.6600000000000005,0.12541909530921938,-0.4177607325941929,-0.00025083819061662294,500(Օմ)
133,0.6650000000000005,0.1233372400785661,-0.4149673713653197,-0.00024667448015365523,500(Օմ)
134,0.6700000000000005,0.12126942159556617,-0.4121461335400448,-0.0002425388431888595,500(Օմ)
135,0.6750000000000005,0.11921577874316565,-0.4092972204056225,-0.00023843155748194678,500(Օմ)
136,0.6800000000000005,0.11717644939150994,-0.40642083579624544,-0.00023435289877466597,500(Օմ)
137,0.6850000000000005,0.11515157038520318,-0.4035171860477448,-0.00023030314077308878,500(Օմ)
138,0.6900000000000005,0.1131412775310325,-0.40058647993795055,-0.00022628255506237926,500(Օմ)
139,0.6950000000000005,0.11114570558582368,-0.3976289284658663,-0.0002222914111671137,500(Օմ)
140,0.7000000000000005,0.10916498824637383,-0.3946447446880558,-0.00021832997648740804,500(Օմ)
141,0.7050000000000005,0.10719925813894311,-0.39163414362974114,-0.00021439851627401418,500(Օմ)
142,0.7100000000000005,0.10524864681007642,-0.3885973420598628,-0.00021049729361762026,500(Օմ)
143,0.7150000000000005,0.10331328471834447,-0.3855345584978865,-0.00020662656942770086,500(Օմ)
144,0.7200000000000005,0.10139330122509754,-0.3824460128280416,-0.00020278660245359736,500(Օմ)
145,0.7250000000000005,0.09948882459006407,-0.37933192626416584,-0.0001989776491817044,500(Օմ)
146,0.7300000000000005,0.0975999819624559,-0.376192521297617,-0.00019519996392766692,500(Օմ)
147,0.7350000000000005,0.0957268993770879,-0.3730280213578564,-0.0001914537987549106,500(Օմ)
148,0.7400000000000005,0.09386970174887733,-0.36983865075951783,-0.0001877394034956112,500(Օմ)
149,0.7450000000000006,0.09202851286949269,-0.366624634506686,-0.00018405702574750965,500(Օմ)
150,0.7500000000000006,0.09020345540381047,-0.3633861981987953,-0.0001804069108096995,500(Օմ)
151,0.7550000000000006,0.08839465088750477,-0.3601235678694361,-0.00017678930177161128,500(Օմ)
152,0.7600000000000006,0.0866022197251161,-0.35683696977277657,-0.0001732044394524776,500(Օմ)
153,0.7650000000000006,0.08482628118977699,-0.35352663036671106,-0.00016965256237662374,500(Օմ)
154,0.7700000000000006,0.08306695342144897,-0.35019277609580535,-0.00016613390683727774,500(Օմ)
155,0.7750000000000006,0.08132435342881891,-0.3468356332785665,-0.00016264870685758076,500(Օմ)
156,0.7800000000000006,0.07959859708866332,-0.34345542810749274,-0.00015919719416925687,500(Օմ)
157,0.7850000000000006,0.077889799147744,-0.34005238642434477,-0.00015577959829073812,500(Օմ)
158,0.7900000000000006,0.07619807322441988,-0.3366267336841423,-0.00015239614645258526,500(Օմ)
159,0.7950000000000006,0.07452353181090257,-0.3331786949249388,-0.00014904706361883874,500(Օմ)
160,0.8000000000000006,0.07286628627517049,-0.32970849475018105,-0.00014573257255093286,500(Օմ)
161,0.8050000000000006,0.07122644686340075,-0.3262163572039348,-0.00014245289372240982,500(Օմ)
162,0.8100000000000006,0.06960412270313113,-0.3227025058460189,-0.000139208245397128,500(Օմ)
163,0.8150000000000006,0.06799942180494055,-0.3191671638222977,-0.0001359988436115192,500(Օմ)
164,0.8200000000000006,0.06641245106490813,-0.3156105538963063,-0.00013282490212473963,500(Օմ)
165,0.8250000000000006,0.0648433162659775,-0.31203289854268834,-0.00012968663252542478,500(Օմ)
166,0.8300000000000006,0.06329212207948126,-0.3084344201059811,-0.00012658424416046865,500(Օմ)
167,0.8350000000000006,0.0617589720649177,-0.30481534099084295,-0.000123517944128064,500(Օմ)
168,0.8400000000000006,0.06024396866957284,-0.30117588395344874,-0.00012048793733797358,500(Օմ)
169,0.8450000000000006,0.05874721322538321,-0.29751627236040024,-0.00011749442644055919,500(Օմ)
170,0.8500000000000006,0.05726880594596883,-0.29383673051207815,-0.00011453761189076511,500(Օմ)
171,0.8550000000000006,0.055808845920262425,-0.29013748418230845,-0.0001116176918342926,500(Օմ)
172,0.8600000000000007,0.054367431104145734,-0.2864187610484512,-0.00010873486220724926,500(Օմ)
173,0.8650000000000007,0.052944658309777896,-0.28268079131693546,-0.0001058893166116584,500(Օմ)
174,0.8700000000000007,0.05154062319097636,-0.27892380840306175,-0.00010308124638306465,500(Օմ)
175,0.8750000000000007,0.050155420225747295,-0.27514804972481866,-0.0001003108404484046,500(Օմ)
176,0.8800000000000007,0.04878914269372819,-0.2713537576331396,-9.757828538278779e-05,500(Օմ)
177,0.8850000000000007,0.047441882649415866,-0.26754118036244734,-9.488376529591391e-05,500(Օմ)
178,0.8900000000000007,0.04611373089010372,-0.2637105732312608,-9.222746177871277e-05,500(Օմ)
179,0.8950000000000007,0.04480477691710326,-0.25986219994384063,-8.960955383587738e-05,500(Օմ)
180,0.9000000000000007,0.04351510889066531,-0.25599633401404287,-8.703021777925479e-05,500(Օմ)
181,0.9050000000000007,0.042244813576962824,-0.25211326037796067,-8.448962714261571e-05,500(Օմ)
182,0.9100000000000007,0.04099397628688569,-0.24821327718539254,-8.198795257149255e-05,500(Օմ)
183,0.9150000000000007,0.039762680805108926,-0.2442966978116815,-7.952536160293899e-05,500(Օմ)
184,0.9200000000000007,0.038551009308768855,-0.24036385301653718,-7.710201861579197e-05,500(Օմ)
185,0.9250000000000007,0.03735904227494353,-0.23641509327561183,-7.471808454998646e-05,500(Օմ)
186,0.9300000000000007,0.03618685837601275,-0.23245079156565018,-7.237371674667648e-05,500(Օմ)
187,0.9350000000000007,0.03503453435928704,-0.22847134617079412,-7.006906871027258e-05,500(Օմ)
188,0.9400000000000007,0.033902144914304815,-0.22447718374237824,-6.780428982059578e-05,500(Օմ)
189,0.9450000000000007,0.032789762521863254,-0.22046876281339822,-6.557952503800923e-05,500(Օմ)
190,0.9500000000000007,0.03169745728617083,-0.21644657742643936,-6.339491457309221e-05,500(Օմ)
191,0.9550000000000007,0.030625296747598854,-0.21241116111603064,-6.12505934921917e-05,500(Օմ)
192,0.9600000000000007,0.02957334567501051,-0.20836309117023255,-5.9146691348009595e-05,500(Օմ)
193,0.9650000000000007,0.028541665835896513,-0.20430299320914014,-5.708333166799806e-05,500(Օմ)
194,0.9700000000000008,0.027530315742919087,-0.20023154607561522,-5.5060631478219546e-05,500(Օմ)
195,0.9750000000000008,0.02653935037514038,-0.19614948698436085,-5.307870074217069e-05,500(Օմ)
196,0.9800000000000008,0.025568820873075493,-0.19205761702238633,-5.113764174244362e-05,500(Օմ)
197,0.9850000000000008,0.024618774204916528,-0.1879568069230524,-4.9237548409367116e-05,500(Օմ)
198,0.9900000000000008,0.023689252803844974,-0.18384800308030336,-4.7378505606890386e-05,500(Օմ)
199,0.9950000000000008,0.02278029417411345,-0.1797322338600732,-4.556058834383897e-05,500(Օմ)
200,1.0000000000000007,0.021891930465244257,-0.17561061608220307,-4.378386092837583e-05,500(Օմ)
201,1.0050000000000006,0.02102418801329145,-0.1714843616933759,-4.204837603369316e-05,500(Օմ)
202,1.0100000000000005,0.020177086848310526,-0.16735478460397357,-4.035417369961658e-05,500(Օմ)
203,1.0150000000000003,0.01935064016725174,-0.1632233075227384,-3.870128033076764e-05,500(Օմ)
204,1.0200000000000002,0.018544853773083163,-0.15909146878605573,-3.708970754194574e-05,500(Օմ)
205,1.0250000000000001,0.01775972547939129,-0.15496092913390924,-3.5519450957241516e-05,500(Օմ)
206,1.03,0.016995244481744085,-0.15083347824316928,-3.399048896308293e-05,500(Օմ)
207,1.035,0.01625139069695961,-0.1467110409371657,-3.25027813936965e-05,500(Օմ)
208,1.0399999999999998,0.015528134072372525,-0.14259568294217628,-3.1056268142024e-05,500(Օմ)
209,1.0449999999999997,0.01482543386753785,-0.13848961602656662,-2.9650867731434438e-05,500(Օմ)
210,1.0499999999999996,0.014143237912106858,-0.13439520240099823,-2.8286475820094026e-05,500(Օմ)
211,1.0549999999999995,0.013481481843527862,-0.13031495814219085,-2.696296368390888e-05,500(Օմ)
212,1.0599999999999994,0.012840088330684942,-0.12625155544174294,-2.5680176660450305e-05,500(Օմ)
213,1.0649999999999993,0.012218966289110513,-0.12220782355216442,-2.443793257860677e-05,500(Օմ)
